T18B8 1801:122.094   SEGGER J-Link V7.94e Log File
T18B8 1801:122.186   DLL Compiled: Jan 15 2024 15:13:38
T18B8 1801:122.196   Logging started @ 2025-12-09 09:48
T18B8 1801:122.203   Process: C:\Programas-Practicas\Simuladores\Keil\UV4\UV4.exe
T18B8 1801:122.212 - 1389.882ms
T18B8 1801:122.225 JLINK_SetWarnOutHandler(...)
T18B8 1801:122.232 - 0.007ms
T18B8 1801:122.259 JLINK_OpenEx(...)
T18B8 1801:125.424   Firmware: J-Link OB-nRF5340-NordicSemi compiled Dec  3 2021 15:46:49
T18B8 1801:126.304   Firmware: J-Link OB-nRF5340-NordicSemi compiled Dec  3 2021 15:46:49
T18B8 1801:158.191   Hardware: V1.00
T18B8 1801:158.217   S/N: 1050210650
T18B8 1801:158.228   OEM: SEGGER
T18B8 1801:158.238   Feature(s): RDI, FlashBP, FlashDL, JFlash, GDB
T18B8 1801:159.251   Bootloader: (Could not read)
T18B8 1801:160.560   TELNET listener socket opened on port 19021
T18B8 1801:167.730   WEBSRV WEBSRV_Init(): Starting webserver thread(s)
T18B8 1801:167.884   WEBSRV Webserver running on local port 19080
T18B8 1801:168.042   Looking for J-Link GUI Server exe at: C:\Programas-Practicas\Simuladores\Keil\ARM\Segger\JLinkGUIServer.exe
T18B8 1801:168.100   Looking for J-Link GUI Server exe at: \JLinkGUIServer.exe
T18B8 1801:477.126   Failed to connect to J-Link GUI Server.
T18B8 1801:477.203 - 354.941ms returns "O.K."
T18B8 1801:477.282 JLINK_GetEmuCaps()
T18B8 1801:477.318 - 0.034ms returns 0xB8EA5A33
T18B8 1801:477.370 JLINK_TIF_GetAvailable(...)
T18B8 1801:477.776 - 0.404ms
T18B8 1801:477.866 JLINK_SetErrorOutHandler(...)
T18B8 1801:477.900 - 0.033ms
T18B8 1801:478.662 JLINK_ExecCommand("ProjectFile = "D:\HW_Guitar_Hero-main\nrf\keil\JLinkSettings.ini"", ...). 
T18B8 1801:485.889 - 7.225ms returns 0x00
T18B8 1801:486.015 JLINK_ExecCommand("Device = nRF52840_xxAA", ...). 
T18B8 1801:487.571   Device "NRF52840_XXAA" selected.
T18B8 1801:487.921 - 1.862ms returns 0x00
T18B8 1801:487.952 JLINK_ExecCommand("DisableConnectionTimeout", ...). 
T18B8 1801:487.978 - 0.002ms returns 0x01
T18B8 1801:487.994 JLINK_GetHardwareVersion()
T18B8 1801:488.015 - 0.020ms returns 10000
T18B8 1801:488.025 JLINK_GetDLLVersion()
T18B8 1801:488.032 - 0.006ms returns 79405
T18B8 1801:488.042 JLINK_GetOEMString(...)
T18B8 1801:488.052 JLINK_GetFirmwareString(...)
T18B8 1801:488.059 - 0.007ms
T18B8 1801:488.088 JLINK_GetDLLVersion()
T18B8 1801:488.096 - 0.007ms returns 79405
T18B8 1801:488.106 JLINK_GetCompileDateTime()
T18B8 1801:488.113 - 0.006ms
T18B8 1801:488.128 JLINK_GetFirmwareString(...)
T18B8 1801:488.136 - 0.007ms
T18B8 1801:488.150 JLINK_GetHardwareVersion()
T18B8 1801:488.157 - 0.007ms returns 10000
T18B8 1801:488.172 JLINK_GetSN()
T18B8 1801:488.180 - 0.007ms returns 1050210650
T18B8 1801:488.194 JLINK_GetOEMString(...)
T18B8 1801:488.216 JLINK_TIF_Select(JLINKARM_TIF_SWD)
T18B8 1801:489.062 - 0.845ms returns 0x00
T18B8 1801:489.084 JLINK_HasError()
T18B8 1801:489.112 JLINK_SetSpeed(5000)
T18B8 1801:489.342 - 0.230ms
T18B8 1801:489.378 JLINK_GetId()
T18B8 1801:489.635   InitTarget() start
T18B8 1801:489.649    J-Link Script File: Executing InitTarget()
T18B8 1801:492.789   InitTarget() end - Took 3.11ms
T18B8 1801:493.524   Found SW-DP with ID 0x2BA01477
T18B8 1801:495.830   DPIDR: 0x2BA01477
T18B8 1801:495.852   CoreSight SoC-400 or earlier
T18B8 1801:495.869   Scanning AP map to find all available APs
T18B8 1801:496.773   AP[2]: Stopped AP scan as end of AP map has been reached
T18B8 1801:496.793   AP[0]: AHB-AP (IDR: 0x24770011)
T18B8 1801:496.808   AP[1]: JTAG-AP (IDR: 0x02880000)
T18B8 1801:496.824   Iterating through AP map to find AHB-AP to use
T18B8 1801:497.786   AP[0]: Core found
T18B8 1801:497.824   AP[0]: AHB-AP ROM base: 0xE00FF000
T18B8 1801:498.260   CPUID register: 0x410FC241. Implementer code: 0x41 (ARM)
T18B8 1801:498.279   Found Cortex-M4 r0p1, Little endian.
T18B8 1801:498.632   -- Max. mem block: 0x0003C548
T18B8 1801:498.948   CPU_ReadMem(4 bytes @ 0xE000EDF0)
T18B8 1801:499.268   CPU_WriteMem(4 bytes @ 0xE000EDF0)
T18B8 1801:499.616   CPU_ReadMem(4 bytes @ 0xE0002000)
T18B8 1801:500.027   FPUnit: 6 code (BP) slots and 2 literal slots
T18B8 1801:500.046   CPU_ReadMem(4 bytes @ 0xE000EDFC)
T18B8 1801:500.383   CPU_WriteMem(4 bytes @ 0xE000EDFC)
T18B8 1801:500.763   CPU_ReadMem(4 bytes @ 0xE0001000)
T18B8 1801:501.158   CPU_WriteMem(4 bytes @ 0xE0001000)
T18B8 1801:501.535   CPU_ReadMem(4 bytes @ 0xE000ED88)
T18B8 1801:501.875   CPU_WriteMem(4 bytes @ 0xE000ED88)
T18B8 1801:502.234   CPU_ReadMem(4 bytes @ 0xE000ED88)
T18B8 1801:502.541   CPU_WriteMem(4 bytes @ 0xE000ED88)
T18B8 1801:502.929   CoreSight components:
T18B8 1801:502.948   ROMTbl[0] @ E00FF000
T18B8 1801:502.960   CPU_ReadMem(64 bytes @ 0xE00FF000)
T18B8 1801:503.722   CPU_ReadMem(32 bytes @ 0xE000EFE0)
T18B8 1801:504.273   [0][0]: E000E000 CID B105E00D PID 000BB00C SCS-M7
T18B8 1801:504.288   CPU_ReadMem(32 bytes @ 0xE0001FE0)
T18B8 1801:504.906   [0][1]: E0001000 CID B105E00D PID 003BB002 DWT
T18B8 1801:504.921   CPU_ReadMem(32 bytes @ 0xE0002FE0)
T18B8 1801:505.532   [0][2]: E0002000 CID B105E00D PID 002BB003 FPB
T18B8 1801:505.547   CPU_ReadMem(32 bytes @ 0xE0000FE0)
T18B8 1801:506.142   [0][3]: E0000000 CID B105E00D PID 003BB001 ITM
T18B8 1801:506.157   CPU_ReadMem(32 bytes @ 0xE0040FE0)
T18B8 1801:506.755   [0][4]: E0040000 CID B105900D PID 000BB9A1 TPIU
T18B8 1801:506.770   CPU_ReadMem(32 bytes @ 0xE0041FE0)
T18B8 1801:507.377   [0][5]: E0041000 CID B105900D PID 000BB925 ETM
T18B8 1801:507.622 - 18.243ms returns 0x2BA01477
T18B8 1801:507.643 JLINK_GetDLLVersion()
T18B8 1801:507.651 - 0.007ms returns 79405
T18B8 1801:507.744 JLINK_CORE_GetFound()
T18B8 1801:507.758 - 0.012ms returns 0xE0000FF
T18B8 1801:507.771 JLINK_GetDebugInfo(0x100 = JLINKARM_ROM_TABLE_ADDR_INDEX)
T18B8 1801:507.779   Value=0xE00FF000
T18B8 1801:507.789 - 0.019ms returns 0
T18B8 1801:507.810 JLINK_GetDebugInfo(0x100 = JLINKARM_ROM_TABLE_ADDR_INDEX)
T18B8 1801:507.818   Value=0xE00FF000
T18B8 1801:507.828 - 0.018ms returns 0
T18B8 1801:507.838 JLINK_GetDebugInfo(0x101 = JLINKARM_DEBUG_INFO_ETM_ADDR_INDEX)
T18B8 1801:507.845   Value=0xE0041000
T18B8 1801:507.855 - 0.017ms returns 0
T18B8 1801:507.867 JLINK_ReadMemEx(0xE0041FD0, 0x20 Bytes, Flags = 0x02000004)
T18B8 1801:507.881   CPU_ReadMem(32 bytes @ 0xE0041FD0)
T18B8 1801:508.460   Data:  04 00 00 00 00 00 00 00 00 00 00 00 00 00 00 00 ...
T18B8 1801:508.502 - 0.634ms returns 32 (0x20)
T18B8 1801:508.513 JLINK_GetDebugInfo(0x102 = JLINKARM_DEBUG_INFO_MTB_ADDR_INDEX)
T18B8 1801:508.521   Value=0x00000000
T18B8 1801:508.531 - 0.017ms returns 0
T18B8 1801:508.540 JLINK_GetDebugInfo(0x103 = JLINKARM_DEBUG_INFO_TPIU_ADDR_INDEX)
T18B8 1801:508.548   Value=0xE0040000
T18B8 1801:508.558 - 0.017ms returns 0
T18B8 1801:508.567 JLINK_GetDebugInfo(0x104 = JLINKARM_DEBUG_INFO_ITM_ADDR_INDEX)
T18B8 1801:508.574   Value=0xE0000000
T18B8 1801:508.585 - 0.017ms returns 0
T18B8 1801:508.594 JLINK_GetDebugInfo(0x105 = JLINKARM_DEBUG_INFO_DWT_ADDR_INDEX)
T18B8 1801:508.601   Value=0xE0001000
T18B8 1801:508.614 - 0.020ms returns 0
T18B8 1801:508.624 JLINK_GetDebugInfo(0x106 = JLINKARM_DEBUG_INFO_FPB_ADDR_INDEX)
T18B8 1801:508.631   Value=0xE0002000
T18B8 1801:508.641 - 0.017ms returns 0
T18B8 1801:508.650 JLINK_GetDebugInfo(0x107 = JLINKARM_DEBUG_INFO_NVIC_ADDR_INDEX)
T18B8 1801:508.657   Value=0xE000E000
T18B8 1801:508.668 - 0.017ms returns 0
T18B8 1801:508.677 JLINK_GetDebugInfo(0x10C = JLINKARM_DEBUG_INFO_DBG_ADDR_INDEX)
T18B8 1801:508.684   Value=0xE000EDF0
T18B8 1801:508.694 - 0.017ms returns 0
T18B8 1801:508.704 JLINK_GetDebugInfo(0x01 = Unknown)
T18B8 1801:508.711   Value=0x00000001
T18B8 1801:508.721 - 0.017ms returns 0
T18B8 1801:508.732 JLINK_ReadMemU32(0xE000ED00, 0x1 Items)
T18B8 1801:508.742   CPU_ReadMem(4 bytes @ 0xE000ED00)
T18B8 1801:509.073   Data:  41 C2 0F 41
T18B8 1801:509.089   Debug reg: CPUID
T18B8 1801:509.100 - 0.367ms returns 1 (0x1)
T18B8 1801:509.113 JLINK_GetDebugInfo(0x10F = JLINKARM_DEBUG_INFO_HAS_CORTEX_M_SECURITY_EXT_INDEX)
T18B8 1801:509.120   Value=0x00000000
T18B8 1801:509.131 - 0.018ms returns 0
T18B8 1801:509.141 JLINK_HasError()
T18B8 1801:509.157 JLINK_SetResetType(JLINKARM_CM3_RESET_TYPE_NORMAL)
T18B8 1801:509.165 - 0.007ms returns JLINKARM_CM3_RESET_TYPE_NORMAL
T18B8 1801:509.175 JLINK_Reset()
T18B8 1801:509.186   CPU is running
T18B8 1801:509.198   CPU_WriteMem(4 bytes @ 0xE000EDF0)
T18B8 1801:509.537   CPU is running
T18B8 1801:509.552   CPU_WriteMem(4 bytes @ 0xE000EDFC)
T18B8 1801:509.873   Reset: Halt core after reset via DEMCR.VC_CORERESET.
T18B8 1801:510.244   Reset: Reset device via AIRCR.SYSRESETREQ.
T18B8 1801:510.259   CPU is running
T18B8 1801:510.271   CPU_WriteMem(4 bytes @ 0xE000ED0C)
T18B8 1801:564.111   CPU_ReadMem(4 bytes @ 0xE000EDF0)
T18B8 1801:564.814   CPU_ReadMem(4 bytes @ 0xE000EDF0)
T18B8 1801:569.345   CPU_WriteMem(4 bytes @ 0xE000EDFC)
T18B8 1801:575.707   CPU_ReadMem(4 bytes @ 0xE000EDF0)
T18B8 1801:580.426   CPU_WriteMem(4 bytes @ 0xE0002000)
T18B8 1801:581.154   CPU_ReadMem(4 bytes @ 0xE000EDFC)
T18B8 1801:581.857   CPU_ReadMem(4 bytes @ 0xE0001000)
T18B8 1801:582.475 - 73.298ms
T18B8 1801:582.792 JLINK_HasError()
T18B8 1801:582.865 JLINK_ReadReg(R15 (PC))
T18B8 1801:582.904 - 0.037ms returns 0x00000214
T18B8 1801:582.941 JLINK_ReadReg(XPSR)
T18B8 1801:582.971 - 0.028ms returns 0x01000000
T18B8 1801:583.011 JLINK_Halt()
T18B8 1801:583.039 - 0.027ms returns 0x00
T18B8 1801:583.077 JLINK_ReadMemU32(0xE000EDF0, 0x1 Items)
T18B8 1801:583.118   CPU_ReadMem(4 bytes @ 0xE000EDF0)
T18B8 1801:583.684   Data:  03 00 03 00
T18B8 1801:583.744   Debug reg: DHCSR
T18B8 1801:583.786 - 0.708ms returns 1 (0x1)
T18B8 1801:583.839 JLINK_WriteU32_64(0xE000EDF0, 0xA05F0003)
T18B8 1801:583.868   Debug reg: DHCSR
T18B8 1801:584.760   CPU_WriteMem(4 bytes @ 0xE000EDF0)
T18B8 1801:585.443 - 1.602ms returns 0 (0x00000000)
T18B8 1801:585.508 JLINK_WriteU32_64(0xE000EDFC, 0x01000000)
T18B8 1801:585.538   Debug reg: DEMCR
T18B8 1801:585.594   CPU_WriteMem(4 bytes @ 0xE000EDFC)
T18B8 1801:586.182 - 0.672ms returns 0 (0x00000000)
T18B8 1801:586.351 JLINK_GetHWStatus(...)
T18B8 1801:586.723 - 0.370ms returns 0
T18B8 1801:586.868 JLINK_GetNumBPUnits(Type = 0xFFFFFF00)
T18B8 1801:586.903 - 0.034ms returns 0x06
T18B8 1801:586.939 JLINK_GetNumBPUnits(Type = 0xF0)
T18B8 1801:586.967 - 0.027ms returns 0x2000
T18B8 1801:587.005 JLINK_GetNumWPUnits()
T18B8 1801:587.032 - 0.027ms returns 4
T18B8 1801:587.117 JLINK_GetSpeed()
T18B8 1801:587.147 - 0.028ms returns 2000
T18B8 1801:587.214 JLINK_ReadMemU32(0xE000E004, 0x1 Items)
T18B8 1801:587.257   CPU_ReadMem(4 bytes @ 0xE000E004)
T18B8 1801:587.947   Data:  01 00 00 00
T18B8 1801:588.009 - 0.794ms returns 1 (0x1)
T18B8 1801:588.056 JLINK_ReadMemU32(0xE000E004, 0x1 Items)
T18B8 1801:588.098   CPU_ReadMem(4 bytes @ 0xE000E004)
T18B8 1801:588.783   Data:  01 00 00 00
T18B8 1801:588.845 - 0.788ms returns 1 (0x1)
T18B8 1801:588.899 JLINK_WriteMemEx(0xE0001000, 0x0000001C Bytes, Flags = 0x02000004)
T18B8 1801:588.930   Data:  01 00 00 00 00 00 00 00 00 00 00 00 00 00 00 00 ...
T18B8 1801:588.988   CPU_WriteMem(28 bytes @ 0xE0001000)
T18B8 1801:589.862 - 0.962ms returns 0x1C
T18B8 1801:589.975 JLINK_HasError()
T18B8 1801:590.019 JLINK_ReadReg(R15 (PC))
T18B8 1801:590.057 - 0.037ms returns 0x00000214
T18B8 1801:590.094 JLINK_ReadReg(XPSR)
T18B8 1801:590.123 - 0.028ms returns 0x01000000
T18B8 1801:604.545 JLINK_ReadMemEx(0xE0001004, 0x4 Bytes, Flags = 0x02000000)
T18B8 1801:604.597   Data:  00 00 00 00
T18B8 1801:604.627   Debug reg: DWT_CYCCNT
T18B8 1801:604.655 - 0.110ms returns 4 (0x4)
T18B8 1801:686.877 JLINK_HasError()
T18B8 1801:686.905 JLINK_SetResetType(JLINKARM_CM3_RESET_TYPE_NORMAL)
T18B8 1801:686.913 - 0.008ms returns JLINKARM_CM3_RESET_TYPE_NORMAL
T18B8 1801:686.923 JLINK_Reset()
T18B8 1801:686.940   CPU_WriteMem(4 bytes @ 0xE000EDF0)
T18B8 1801:687.365   CPU_WriteMem(4 bytes @ 0xE000EDFC)
T18B8 1801:687.835   Reset: Halt core after reset via DEMCR.VC_CORERESET.
T18B8 1801:688.319   Reset: Reset device via AIRCR.SYSRESETREQ.
T18B8 1801:688.337   CPU_WriteMem(4 bytes @ 0xE000ED0C)
T18B8 1801:741.773   CPU_ReadMem(4 bytes @ 0xE000EDF0)
T18B8 1801:742.368   CPU_ReadMem(4 bytes @ 0xE000EDF0)
T18B8 1801:742.927   CPU_WriteMem(4 bytes @ 0xE000EDFC)
T18B8 1801:749.104   CPU_ReadMem(4 bytes @ 0xE000EDF0)
T18B8 1801:753.622   CPU_WriteMem(4 bytes @ 0xE0002000)
T18B8 1801:754.207   CPU_ReadMem(4 bytes @ 0xE000EDFC)
T18B8 1801:754.840   CPU_ReadMem(4 bytes @ 0xE0001000)
T18B8 1801:755.486 - 68.561ms
T18B8 1801:755.683 JLINK_HasError()
T18B8 1801:755.729 JLINK_ReadReg(R15 (PC))
T18B8 1801:755.760 - 0.029ms returns 0x00000214
T18B8 1801:755.800 JLINK_ReadReg(XPSR)
T18B8 1801:755.825 - 0.024ms returns 0x01000000
T18B8 1801:756.732 JLINK_ReadMemEx(0x00000200, 0x3C Bytes, Flags = 0x02000000)
T18B8 1801:756.778   CPU_ReadMem(64 bytes @ 0x00000200)
T18B8 1801:757.992    -- Updating C cache (64 bytes @ 0x00000200)
T18B8 1801:758.078    -- Read from C cache (60 bytes @ 0x00000200)
T18B8 1801:758.131   Data:  DF F8 0C D0 00 F0 68 F8 00 48 00 47 B1 14 00 00 ...
T18B8 1801:758.177 - 1.444ms returns 60 (0x3C)
T18B8 1801:936.780 JLINK_ReadMemEx(0x40000108, 0x4 Bytes, Flags = 0x02000004)
T18B8 1801:936.816   CPU_ReadMem(4 bytes @ 0x40000108)
T18B8 1801:937.269   Data:  00 00 00 00
T18B8 1801:937.283 - 0.503ms returns 4 (0x4)
T18B8 1801:937.372 JLINK_ReadMemEx(0x40000114, 0x10 Bytes, Flags = 0x02000004)
T18B8 1801:937.383   CPU_ReadMem(16 bytes @ 0x40000114)
T18B8 1801:937.878   Data:  00 00 00 00 00 00 00 00 00 00 00 00 00 00 00 00
T18B8 1801:937.909 - 0.537ms returns 16 (0x10)
T18B8 1801:937.926 JLINK_ReadMemEx(0x40000124, 0x4 Bytes, Flags = 0x02000004)
T18B8 1801:937.940   CPU_ReadMem(4 bytes @ 0x40000124)
T18B8 1801:938.303   Data:  00 00 00 00
T18B8 1801:938.317 - 0.391ms returns 4 (0x4)
T18B8 1801:938.330 JLINK_ReadMemEx(0x40000304, 0x4 Bytes, Flags = 0x02000004)
T18B8 1801:938.340   CPU_ReadMem(4 bytes @ 0x40000304)
T18B8 1801:938.765   Data:  00 00 00 00
T18B8 1801:938.780 - 0.449ms returns 4 (0x4)
T18B8 1801:938.792 JLINK_ReadMemEx(0x40000308, 0x4 Bytes, Flags = 0x02000004)
T18B8 1801:938.802   CPU_ReadMem(4 bytes @ 0x40000308)
T18B8 1801:939.270   Data:  00 00 00 00
T18B8 1801:939.284 - 0.492ms returns 4 (0x4)
T18B8 1801:939.297 JLINK_ReadMemEx(0x40000400, 0x4 Bytes, Flags = 0x02000004)
T18B8 1801:939.306   CPU_ReadMem(4 bytes @ 0x40000400)
T18B8 1801:939.737   Data:  05 00 00 00
T18B8 1801:939.751 - 0.454ms returns 4 (0x4)
T18B8 1801:939.764 JLINK_ReadMemEx(0x40000428, 0x4 Bytes, Flags = 0x02000004)
T18B8 1801:939.773   CPU_ReadMem(4 bytes @ 0x40000428)
T18B8 1801:940.297   Data:  0F 00 00 00
T18B8 1801:940.311 - 0.547ms returns 4 (0x4)
T18B8 1801:940.324 JLINK_ReadMemEx(0x40000438, 0x4 Bytes, Flags = 0x02000004)
T18B8 1801:940.333   CPU_ReadMem(4 bytes @ 0x40000438)
T18B8 1801:940.724   Data:  00 00 00 00
T18B8 1801:940.738 - 0.414ms returns 4 (0x4)
T18B8 1801:940.751 JLINK_ReadMemEx(0x40000510, 0x4 Bytes, Flags = 0x02000004)
T18B8 1801:940.775   CPU_ReadMem(4 bytes @ 0x40000510)
T18B8 1801:941.144   Data:  00 00 00 00
T18B8 1801:941.158 - 0.406ms returns 4 (0x4)
T18B8 1801:941.170 JLINK_ReadMemEx(0x4000051C, 0x4 Bytes, Flags = 0x02000004)
T18B8 1801:941.180   CPU_ReadMem(4 bytes @ 0x4000051C)
T18B8 1801:941.479   Data:  00 00 00 00
T18B8 1801:941.493 - 0.323ms returns 4 (0x4)
T18B8 1801:941.506 JLINK_ReadMemEx(0x40000520, 0x4 Bytes, Flags = 0x02000004)
T18B8 1801:941.515   CPU_ReadMem(4 bytes @ 0x40000520)
T18B8 1801:941.851   Data:  00 00 00 00
T18B8 1801:941.865 - 0.359ms returns 4 (0x4)
T18B8 1801:941.877 JLINK_ReadMemEx(0x40000578, 0x4 Bytes, Flags = 0x02000004)
T18B8 1801:941.887   CPU_ReadMem(4 bytes @ 0x40000578)
T18B8 1801:942.225   Data:  00 00 00 00
T18B8 1801:942.238 - 0.361ms returns 4 (0x4)
T18B8 1801:942.251 JLINK_ReadMemEx(0x40000580, 0x4 Bytes, Flags = 0x02000004)
T18B8 1801:942.261   CPU_ReadMem(4 bytes @ 0x40000580)
T18B8 1801:942.560   Data:  00 00 00 00
T18B8 1801:942.573 - 0.322ms returns 4 (0x4)
T18B8 1801:942.586 JLINK_ReadMemEx(0x40000640, 0x4 Bytes, Flags = 0x02000004)
T18B8 1801:942.596   CPU_ReadMem(4 bytes @ 0x40000640)
T18B8 1801:942.925   Data:  00 00 00 00
T18B8 1801:942.980 - 0.394ms returns 4 (0x4)
T18B8 1801:942.994 JLINK_ReadMemEx(0x40000900, 0x4 Bytes, Flags = 0x02000004)
T18B8 1801:943.005   CPU_ReadMem(4 bytes @ 0x40000900)
T18B8 1801:943.319   Data:  FF FF 00 00
T18B8 1801:943.334 - 0.340ms returns 4 (0x4)
T18B8 1801:943.346 JLINK_ReadMemEx(0x40000910, 0x4 Bytes, Flags = 0x02000004)
T18B8 1801:943.357   CPU_ReadMem(4 bytes @ 0x40000910)
T18B8 1801:943.672   Data:  FF FF 00 00
T18B8 1801:943.686 - 0.340ms returns 4 (0x4)
T18B8 1801:943.699 JLINK_ReadMemEx(0x40000920, 0x4 Bytes, Flags = 0x02000004)
T18B8 1801:943.709   CPU_ReadMem(4 bytes @ 0x40000920)
T18B8 1801:944.010   Data:  FF FF 00 00
T18B8 1801:944.025 - 0.325ms returns 4 (0x4)
T18B8 1801:944.038 JLINK_ReadMemEx(0x40000930, 0x4 Bytes, Flags = 0x02000004)
T18B8 1801:944.049   CPU_ReadMem(4 bytes @ 0x40000930)
T18B8 1801:944.356   Data:  FF FF 00 00
T18B8 1801:944.383 - 0.345ms returns 4 (0x4)
T18B8 1801:944.396 JLINK_ReadMemEx(0x40000940, 0x4 Bytes, Flags = 0x02000004)
T18B8 1801:944.406   CPU_ReadMem(4 bytes @ 0x40000940)
T18B8 1801:944.712   Data:  FF FF 00 00
T18B8 1801:944.726 - 0.330ms returns 4 (0x4)
T18B8 1801:944.739 JLINK_ReadMemEx(0x40000950, 0x4 Bytes, Flags = 0x02000004)
T18B8 1801:944.749   CPU_ReadMem(4 bytes @ 0x40000950)
T18B8 1801:945.077   Data:  FF FF 00 00
T18B8 1801:945.091 - 0.352ms returns 4 (0x4)
T18B8 1801:945.104 JLINK_ReadMemEx(0x40000960, 0x4 Bytes, Flags = 0x02000004)
T18B8 1801:945.114   CPU_ReadMem(4 bytes @ 0x40000960)
T18B8 1801:945.451   Data:  FF FF 00 00
T18B8 1801:945.466 - 0.361ms returns 4 (0x4)
T18B8 1801:945.478 JLINK_ReadMemEx(0x40000970, 0x4 Bytes, Flags = 0x02000004)
T18B8 1801:945.489   CPU_ReadMem(4 bytes @ 0x40000970)
T18B8 1801:945.796   Data:  FF FF 00 00
T18B8 1801:945.811 - 0.332ms returns 4 (0x4)
T18B8 1801:945.824 JLINK_ReadMemEx(0x40000980, 0x4 Bytes, Flags = 0x02000004)
T18B8 1801:945.834   CPU_ReadMem(4 bytes @ 0x40000980)
T18B8 1801:946.140   Data:  FF FF 00 00
T18B8 1801:946.154 - 0.330ms returns 4 (0x4)
T18B8 1801:989.382 JLINK_ReadMemEx(0x4001C104, 0x18 Bytes, Flags = 0x02000004)
T18B8 1801:989.417   CPU_ReadMem(24 bytes @ 0x4001C104)
T18B8 1801:990.123   Data:  00 00 00 00 00 00 00 00 00 00 00 00 00 00 00 00 ...
T18B8 1801:990.138 - 0.756ms returns 24 (0x18)
T18B8 1801:990.222 JLINK_ReadMemEx(0x4001C11C, 0x4 Bytes, Flags = 0x02000004)
T18B8 1801:990.233   CPU_ReadMem(4 bytes @ 0x4001C11C)
T18B8 1801:990.648   Data:  00 00 00 00
T18B8 1801:990.662 - 0.440ms returns 4 (0x4)
T18B8 1801:990.675 JLINK_ReadMemEx(0x4001C200, 0x4 Bytes, Flags = 0x02000004)
T18B8 1801:990.685   CPU_ReadMem(4 bytes @ 0x4001C200)
T18B8 1801:991.101   Data:  00 00 00 00
T18B8 1801:991.115 - 0.440ms returns 4 (0x4)
T18B8 1801:991.128 JLINK_ReadMemEx(0x4001C300, 0x8 Bytes, Flags = 0x02000004)
T18B8 1801:991.138   CPU_ReadMem(8 bytes @ 0x4001C300)
T18B8 1801:991.566   Data:  00 00 00 00 00 00 00 00
T18B8 1801:991.579 - 0.451ms returns 8 (0x8)
T18B8 1801:991.592 JLINK_ReadMemEx(0x4001C308, 0x4 Bytes, Flags = 0x02000004)
T18B8 1801:991.601   CPU_ReadMem(4 bytes @ 0x4001C308)
T18B8 1801:991.936   Data:  00 00 00 00
T18B8 1801:991.950 - 0.358ms returns 4 (0x4)
T18B8 1801:991.963 JLINK_ReadMemEx(0x4001C500, 0x14 Bytes, Flags = 0x02000004)
T18B8 1801:991.972   CPU_ReadMem(20 bytes @ 0x4001C500)
T18B8 1801:992.489   Data:  00 00 00 00 00 00 00 00 FF 03 00 00 00 00 00 00 ...
T18B8 1801:992.502 - 0.539ms returns 20 (0x14)
T18B8 1801:992.515 JLINK_ReadMemEx(0x4001C514, 0x4 Bytes, Flags = 0x02000004)
T18B8 1801:992.525   CPU_ReadMem(4 bytes @ 0x4001C514)
T18B8 1801:992.898   Data:  00 00 00 00
T18B8 1801:992.912 - 0.397ms returns 4 (0x4)
T18B8 1801:992.925 JLINK_ReadMemEx(0x4001C520, 0xC Bytes, Flags = 0x02000004)
T18B8 1801:992.935   CPU_ReadMem(12 bytes @ 0x4001C520)
T18B8 1801:993.335   Data:  00 00 00 00 00 00 00 00 01 00 00 00
T18B8 1801:993.349 - 0.423ms returns 12 (0xC)
T18B8 1801:993.361 JLINK_ReadMemEx(0x4001C52C, 0x4 Bytes, Flags = 0x02000004)
T18B8 1801:993.371   CPU_ReadMem(4 bytes @ 0x4001C52C)
T18B8 1801:993.736   Data:  00 00 00 00
T18B8 1801:993.750 - 0.389ms returns 4 (0x4)
T18B8 1801:993.762 JLINK_ReadMemEx(0x4001C540, 0xC Bytes, Flags = 0x02000004)
T18B8 1801:993.772   CPU_ReadMem(12 bytes @ 0x4001C540)
T18B8 1801:994.243   Data:  00 00 00 00 00 00 00 00 01 00 00 00
T18B8 1801:994.257 - 0.494ms returns 12 (0xC)
T18B8 1801:994.269 JLINK_ReadMemEx(0x4001C54C, 0x4 Bytes, Flags = 0x02000004)
T18B8 1801:994.279   CPU_ReadMem(4 bytes @ 0x4001C54C)
T18B8 1801:994.609   Data:  00 00 00 00
T18B8 1801:994.623 - 0.353ms returns 4 (0x4)
T18B8 1801:994.635 JLINK_ReadMemEx(0x4001C560, 0xC Bytes, Flags = 0x02000004)
T18B8 1801:994.645   CPU_ReadMem(12 bytes @ 0x4001C560)
T18B8 1801:995.047   Data:  FF FF FF FF FF FF FF FF FF FF FF FF
T18B8 1801:995.060 - 0.424ms returns 12 (0xC)
T18B8 1801:995.073 JLINK_ReadMemEx(0x4001C56C, 0x4 Bytes, Flags = 0x02000004)
T18B8 1801:995.083   CPU_ReadMem(4 bytes @ 0x4001C56C)
T18B8 1801:995.451   Data:  FF FF FF FF
T18B8 1801:995.465 - 0.392ms returns 4 (0x4)
T0A3C 1804:163.190 JLINK_ReadMemEx(0x00000214, 0x2 Bytes, Flags = 0x02000000)
T0A3C 1804:163.236    -- Read from C cache (2 bytes @ 0x00000214)
T0A3C 1804:163.248   Data:  06 48
T0A3C 1804:163.261 - 0.071ms returns 2 (0x2)
T0A3C 1804:163.272 JLINK_HasError()
T0A3C 1804:163.307 JLINK_SetBPEx(Addr = 0x000014B0, Type = 0xFFFFFFF2)
T0A3C 1804:163.318 - 0.011ms returns 0x00000001
T0A3C 1804:163.345 JLINK_HasError()
T0A3C 1804:163.372 JLINK_HasError()
T0A3C 1804:163.400 JLINK_Go()
T0A3C 1804:163.897   CPU_WriteMem(4 bytes @ 0xE0002000)
T0A3C 1804:164.419   CPU_ReadMem(4 bytes @ 0xE0001000)
T0A3C 1804:164.798   CPU_WriteMem(4 bytes @ 0xE0002008)
T0A3C 1804:164.847   CPU_WriteMem(4 bytes @ 0xE000200C)
T0A3C 1804:164.858   CPU_WriteMem(4 bytes @ 0xE0002010)
T0A3C 1804:164.869   CPU_WriteMem(4 bytes @ 0xE0002014)
T0A3C 1804:164.880   CPU_WriteMem(4 bytes @ 0xE0002018)
T0A3C 1804:164.891   CPU_WriteMem(4 bytes @ 0xE000201C)
T0A3C 1804:166.398   CPU_WriteMem(4 bytes @ 0xE0001004)
T0A3C 1804:168.467   Memory map 'after startup completion point' is active
T0A3C 1804:168.492 - 5.091ms
T0A3C 1804:268.842 JLINK_HasError()
T0A3C 1804:268.874 JLINK_IsHalted()
T0A3C 1804:272.517 - 3.642ms returns TRUE
T0A3C 1804:272.538 JLINK_HasError()
T0A3C 1804:272.549 JLINK_Halt()
T0A3C 1804:272.556 - 0.007ms returns 0x00
T0A3C 1804:272.566 JLINK_IsHalted()
T0A3C 1804:272.573 - 0.007ms returns TRUE
T0A3C 1804:272.582 JLINK_IsHalted()
T0A3C 1804:272.589 - 0.006ms returns TRUE
T0A3C 1804:272.598 JLINK_IsHalted()
T0A3C 1804:272.605 - 0.006ms returns TRUE
T0A3C 1804:272.615 JLINK_HasError()
T0A3C 1804:272.625 JLINK_ReadReg(R15 (PC))
T0A3C 1804:272.634 - 0.009ms returns 0x000014B0
T0A3C 1804:272.644 JLINK_ReadReg(XPSR)
T0A3C 1804:272.651 - 0.007ms returns 0x61000000
T0A3C 1804:272.682 JLINK_HasError()
T0A3C 1804:272.712 JLINK_ClrBPEx(BPHandle = 0x00000001)
T0A3C 1804:272.720 - 0.008ms returns 0x00
T0A3C 1804:272.730 JLINK_HasError()
T0A3C 1804:272.752 JLINK_HasError()
T0A3C 1804:272.763 JLINK_ReadMemU32(0xE000ED30, 0x1 Items)
T0A3C 1804:272.775   CPU_ReadMem(4 bytes @ 0xE000ED30)
T0A3C 1804:273.303   Data:  02 00 00 00
T0A3C 1804:273.320 - 0.557ms returns 1 (0x1)
T0A3C 1804:273.332 JLINK_ReadMemU32(0xE0001028, 0x1 Items)
T0A3C 1804:273.343   CPU_ReadMem(4 bytes @ 0xE0001028)
T0A3C 1804:273.799   Data:  00 00 00 00
T0A3C 1804:273.815   Debug reg: DWT_FUNC[0]
T0A3C 1804:273.826 - 0.493ms returns 1 (0x1)
T0A3C 1804:273.838 JLINK_ReadMemU32(0xE0001038, 0x1 Items)
T0A3C 1804:273.849   CPU_ReadMem(4 bytes @ 0xE0001038)
T0A3C 1804:274.302   Data:  00 02 00 00
T0A3C 1804:274.318   Debug reg: DWT_FUNC[1]
T0A3C 1804:274.328 - 0.490ms returns 1 (0x1)
T0A3C 1804:274.341 JLINK_ReadMemU32(0xE0001048, 0x1 Items)
T0A3C 1804:274.352   CPU_ReadMem(4 bytes @ 0xE0001048)
T0A3C 1804:274.785   Data:  00 00 00 00
T0A3C 1804:274.801   Debug reg: DWT_FUNC[2]
T0A3C 1804:274.812 - 0.471ms returns 1 (0x1)
T0A3C 1804:274.824 JLINK_ReadMemU32(0xE0001058, 0x1 Items)
T0A3C 1804:274.835   CPU_ReadMem(4 bytes @ 0xE0001058)
T0A3C 1804:275.308   Data:  00 00 00 00
T0A3C 1804:275.323   Debug reg: DWT_FUNC[3]
T0A3C 1804:275.334 - 0.509ms returns 1 (0x1)
T0A3C 1804:275.395 JLINK_HasError()
T0A3C 1804:275.407 JLINK_ReadReg(R0)
T0A3C 1804:275.416 - 0.009ms returns 0x000014B1
T0A3C 1804:275.426 JLINK_ReadReg(R1)
T0A3C 1804:275.433 - 0.007ms returns 0x200046A0
T0A3C 1804:275.443 JLINK_ReadReg(R2)
T0A3C 1804:275.450 - 0.007ms returns 0x00000000
T0A3C 1804:275.459 JLINK_ReadReg(R3)
T0A3C 1804:275.467 - 0.007ms returns 0x000006B1
T0A3C 1804:275.476 JLINK_ReadReg(R4)
T0A3C 1804:275.484 - 0.007ms returns 0x00001DBC
T0A3C 1804:275.493 JLINK_ReadReg(R5)
T0A3C 1804:275.500 - 0.007ms returns 0x00001DBC
T0A3C 1804:275.509 JLINK_ReadReg(R6)
T0A3C 1804:275.517 - 0.007ms returns 0x00000000
T0A3C 1804:275.526 JLINK_ReadReg(R7)
T0A3C 1804:275.533 - 0.007ms returns 0x00000000
T0A3C 1804:275.542 JLINK_ReadReg(R8)
T0A3C 1804:275.550 - 0.007ms returns 0x00000000
T0A3C 1804:275.559 JLINK_ReadReg(R9)
T0A3C 1804:275.566 - 0.007ms returns 0x00000000
T0A3C 1804:275.575 JLINK_ReadReg(R10)
T0A3C 1804:275.583 - 0.007ms returns 0x00000000
T0A3C 1804:275.592 JLINK_ReadReg(R11)
T0A3C 1804:275.599 - 0.007ms returns 0x00000000
T0A3C 1804:275.609 JLINK_ReadReg(R12)
T0A3C 1804:275.616 - 0.007ms returns 0x4000C570
T0A3C 1804:275.625 JLINK_ReadReg(R13 (SP))
T0A3C 1804:275.633 - 0.007ms returns 0x200046A0
T0A3C 1804:275.642 JLINK_ReadReg(R14)
T0A3C 1804:275.649 - 0.007ms returns 0x000002F5
T0A3C 1804:275.658 JLINK_ReadReg(R15 (PC))
T0A3C 1804:275.666 - 0.007ms returns 0x000014B0
T0A3C 1804:275.675 JLINK_ReadReg(XPSR)
T0A3C 1804:275.682 - 0.007ms returns 0x61000000
T0A3C 1804:275.691 JLINK_ReadReg(MSP)
T0A3C 1804:275.698 - 0.007ms returns 0x200046A0
T0A3C 1804:275.708 JLINK_ReadReg(PSP)
T0A3C 1804:275.715 - 0.007ms returns 0x00000000
T0A3C 1804:275.724 JLINK_ReadReg(CFBP)
T0A3C 1804:275.747 - 0.023ms returns 0x00000000
T0A3C 1804:275.758 JLINK_ReadReg(FPSCR)
T0A3C 1804:281.253 - 5.493ms returns 0x00000000
T0A3C 1804:281.276 JLINK_ReadReg(FPS0)
T0A3C 1804:281.304 - 0.027ms returns 0x00000000
T0A3C 1804:281.333 JLINK_ReadReg(FPS1)
T0A3C 1804:281.358 - 0.024ms returns 0x00000000
T0A3C 1804:281.370 JLINK_ReadReg(FPS2)
T0A3C 1804:281.378 - 0.007ms returns 0x00000000
T0A3C 1804:281.407 JLINK_ReadReg(FPS3)
T0A3C 1804:281.431 - 0.024ms returns 0x00000000
T0A3C 1804:281.443 JLINK_ReadReg(FPS4)
T0A3C 1804:281.451 - 0.007ms returns 0x00000000
T0A3C 1804:281.479 JLINK_ReadReg(FPS5)
T0A3C 1804:281.504 - 0.007ms returns 0x00000000
T0A3C 1804:281.514 JLINK_ReadReg(FPS6)
T0A3C 1804:281.522 - 0.007ms returns 0x00000000
T0A3C 1804:281.532 JLINK_ReadReg(FPS7)
T0A3C 1804:281.540 - 0.008ms returns 0x00000000
T0A3C 1804:281.587 JLINK_ReadReg(FPS8)
T0A3C 1804:281.594 - 0.007ms returns 0x00000000
T0A3C 1804:281.621 JLINK_ReadReg(FPS9)
T0A3C 1804:281.629 - 0.007ms returns 0x00000000
T0A3C 1804:281.657 JLINK_ReadReg(FPS10)
T0A3C 1804:281.682 - 0.024ms returns 0x00000000
T0A3C 1804:281.693 JLINK_ReadReg(FPS11)
T0A3C 1804:281.701 - 0.007ms returns 0x00000000
T0A3C 1804:281.732 JLINK_ReadReg(FPS12)
T0A3C 1804:281.758 - 0.025ms returns 0x00000000
T0A3C 1804:281.786 JLINK_ReadReg(FPS13)
T0A3C 1804:281.794 - 0.007ms returns 0x00000000
T0A3C 1804:281.822 JLINK_ReadReg(FPS14)
T0A3C 1804:281.830 - 0.007ms returns 0x00000000
T0A3C 1804:281.858 JLINK_ReadReg(FPS15)
T0A3C 1804:281.882 - 0.023ms returns 0x00000000
T0A3C 1804:281.911 JLINK_ReadReg(FPS16)
T0A3C 1804:281.935 - 0.024ms returns 0x00000000
T0A3C 1804:281.948 JLINK_ReadReg(FPS17)
T0A3C 1804:281.973 - 0.024ms returns 0x00000000
T0A3C 1804:281.985 JLINK_ReadReg(FPS18)
T0A3C 1804:281.992 - 0.007ms returns 0x00000000
T0A3C 1804:282.021 JLINK_ReadReg(FPS19)
T0A3C 1804:282.028 - 0.007ms returns 0x00000000
T0A3C 1804:282.057 JLINK_ReadReg(FPS20)
T0A3C 1804:282.065 - 0.007ms returns 0x00000000
T0A3C 1804:282.077 JLINK_ReadReg(FPS21)
T0A3C 1804:282.084 - 0.007ms returns 0x00000000
T0A3C 1804:282.096 JLINK_ReadReg(FPS22)
T0A3C 1804:282.104 - 0.007ms returns 0x00000000
T0A3C 1804:282.136 JLINK_ReadReg(FPS23)
T0A3C 1804:282.147 - 0.010ms returns 0x00000000
T0A3C 1804:282.158 JLINK_ReadReg(FPS24)
T0A3C 1804:282.183 - 0.025ms returns 0x00000000
T0A3C 1804:282.212 JLINK_ReadReg(FPS25)
T0A3C 1804:282.237 - 0.024ms returns 0x00000000
T0A3C 1804:282.266 JLINK_ReadReg(FPS26)
T0A3C 1804:282.291 - 0.024ms returns 0x00000000
T0A3C 1804:282.320 JLINK_ReadReg(FPS27)
T0A3C 1804:282.345 - 0.024ms returns 0x00000000
T0A3C 1804:282.374 JLINK_ReadReg(FPS28)
T0A3C 1804:282.399 - 0.024ms returns 0x00000000
T0A3C 1804:282.427 JLINK_ReadReg(FPS29)
T0A3C 1804:282.435 - 0.007ms returns 0x00000000
T0A3C 1804:282.447 JLINK_ReadReg(FPS30)
T0A3C 1804:282.454 - 0.007ms returns 0x00000000
T0A3C 1804:282.467 JLINK_ReadReg(FPS31)
T0A3C 1804:282.492 - 0.025ms returns 0x00000000
T18B8 1804:283.129 JLINK_ReadMemEx(0x00000000, 0x4 Bytes, Flags = 0x02000000)
T18B8 1804:283.166   CPU_ReadMem(64 bytes @ 0x00000000)
T18B8 1804:283.996    -- Updating C cache (64 bytes @ 0x00000000)
T18B8 1804:284.013    -- Read from C cache (4 bytes @ 0x00000000)
T18B8 1804:284.025   Data:  A0 46 00 20
T18B8 1804:284.036 - 0.908ms returns 4 (0x4)
T18B8 1804:284.980 JLINK_ReadMemEx(0x4001C104, 0x18 Bytes, Flags = 0x02000004)
T18B8 1804:284.998   CPU_ReadMem(24 bytes @ 0x4001C104)
T18B8 1804:285.664   Data:  00 00 00 00 00 00 00 00 00 00 00 00 00 00 00 00 ...
T18B8 1804:285.697 - 0.701ms returns 24 (0x18)
T18B8 1804:285.715 JLINK_ReadMemEx(0x4001C11C, 0x4 Bytes, Flags = 0x02000004)
T18B8 1804:285.728   CPU_ReadMem(4 bytes @ 0x4001C11C)
T18B8 1804:286.094   Data:  00 00 00 00
T18B8 1804:286.110 - 0.394ms returns 4 (0x4)
T18B8 1804:286.124 JLINK_ReadMemEx(0x4001C200, 0x4 Bytes, Flags = 0x02000004)
T18B8 1804:286.135   CPU_ReadMem(4 bytes @ 0x4001C200)
T18B8 1804:286.520   Data:  00 00 00 00
T18B8 1804:286.537 - 0.413ms returns 4 (0x4)
T18B8 1804:286.551 JLINK_ReadMemEx(0x4001C300, 0x8 Bytes, Flags = 0x02000004)
T18B8 1804:286.562   CPU_ReadMem(8 bytes @ 0x4001C300)
T18B8 1804:287.012   Data:  00 00 00 00 00 00 00 00
T18B8 1804:287.029 - 0.477ms returns 8 (0x8)
T18B8 1804:287.043 JLINK_ReadMemEx(0x4001C308, 0x4 Bytes, Flags = 0x02000004)
T18B8 1804:287.055   CPU_ReadMem(4 bytes @ 0x4001C308)
T18B8 1804:287.491   Data:  00 00 00 00
T18B8 1804:287.508 - 0.464ms returns 4 (0x4)
T18B8 1804:287.522 JLINK_ReadMemEx(0x4001C500, 0x14 Bytes, Flags = 0x02000004)
T18B8 1804:287.534   CPU_ReadMem(20 bytes @ 0x4001C500)
T18B8 1804:288.042   Data:  00 00 00 00 00 00 00 00 FF 03 00 00 00 00 00 00 ...
T18B8 1804:288.059 - 0.536ms returns 20 (0x14)
T18B8 1804:288.073 JLINK_ReadMemEx(0x4001C514, 0x4 Bytes, Flags = 0x02000004)
T18B8 1804:288.085   CPU_ReadMem(4 bytes @ 0x4001C514)
T18B8 1804:288.502   Data:  00 00 00 00
T18B8 1804:288.519 - 0.445ms returns 4 (0x4)
T18B8 1804:288.534 JLINK_ReadMemEx(0x4001C520, 0xC Bytes, Flags = 0x02000004)
T18B8 1804:288.546   CPU_ReadMem(12 bytes @ 0x4001C520)
T18B8 1804:288.981   Data:  00 00 00 00 00 00 00 00 01 00 00 00
T18B8 1804:288.998 - 0.463ms returns 12 (0xC)
T18B8 1804:289.012 JLINK_ReadMemEx(0x4001C52C, 0x4 Bytes, Flags = 0x02000004)
T18B8 1804:289.024   CPU_ReadMem(4 bytes @ 0x4001C52C)
T18B8 1804:289.395   Data:  00 00 00 00
T18B8 1804:289.412 - 0.400ms returns 4 (0x4)
T18B8 1804:289.426 JLINK_ReadMemEx(0x4001C540, 0xC Bytes, Flags = 0x02000004)
T18B8 1804:289.438   CPU_ReadMem(12 bytes @ 0x4001C540)
T18B8 1804:289.867   Data:  00 00 00 00 00 00 00 00 01 00 00 00
T18B8 1804:289.884 - 0.457ms returns 12 (0xC)
T18B8 1804:289.898 JLINK_ReadMemEx(0x4001C54C, 0x4 Bytes, Flags = 0x02000004)
T18B8 1804:289.910   CPU_ReadMem(4 bytes @ 0x4001C54C)
T18B8 1804:290.298   Data:  00 00 00 00
T18B8 1804:290.313 - 0.414ms returns 4 (0x4)
T18B8 1804:290.326 JLINK_ReadMemEx(0x4001C560, 0xC Bytes, Flags = 0x02000004)
T18B8 1804:290.337   CPU_ReadMem(12 bytes @ 0x4001C560)
T18B8 1804:290.772   Data:  FF FF FF FF FF FF FF FF FF FF FF FF
T18B8 1804:290.787 - 0.460ms returns 12 (0xC)
T18B8 1804:290.800 JLINK_ReadMemEx(0x4001C56C, 0x4 Bytes, Flags = 0x02000004)
T18B8 1804:290.811   CPU_ReadMem(4 bytes @ 0x4001C56C)
T18B8 1804:291.261   Data:  FF FF FF FF
T18B8 1804:291.276 - 0.476ms returns 4 (0x4)
T18B8 1804:291.583 JLINK_ReadMemEx(0x40000108, 0x4 Bytes, Flags = 0x02000004)
T18B8 1804:291.597   CPU_ReadMem(4 bytes @ 0x40000108)
T18B8 1804:291.958   Data:  00 00 00 00
T18B8 1804:291.973 - 0.389ms returns 4 (0x4)
T18B8 1804:291.986 JLINK_ReadMemEx(0x40000114, 0x10 Bytes, Flags = 0x02000004)
T18B8 1804:291.997   CPU_ReadMem(16 bytes @ 0x40000114)
T18B8 1804:292.461   Data:  00 00 00 00 00 00 00 00 00 00 00 00 00 00 00 00
T18B8 1804:292.476 - 0.489ms returns 16 (0x10)
T18B8 1804:292.489 JLINK_ReadMemEx(0x40000124, 0x4 Bytes, Flags = 0x02000004)
T18B8 1804:292.500   CPU_ReadMem(4 bytes @ 0x40000124)
T18B8 1804:292.858   Data:  00 00 00 00
T18B8 1804:292.873 - 0.383ms returns 4 (0x4)
T18B8 1804:292.886 JLINK_ReadMemEx(0x40000304, 0x4 Bytes, Flags = 0x02000004)
T18B8 1804:292.897   CPU_ReadMem(4 bytes @ 0x40000304)
T18B8 1804:293.266   Data:  00 00 00 00
T18B8 1804:293.281 - 0.395ms returns 4 (0x4)
T18B8 1804:293.294 JLINK_ReadMemEx(0x40000308, 0x4 Bytes, Flags = 0x02000004)
T18B8 1804:293.305   CPU_ReadMem(4 bytes @ 0x40000308)
T18B8 1804:293.659   Data:  00 00 00 00
T18B8 1804:293.674 - 0.379ms returns 4 (0x4)
T18B8 1804:293.689 JLINK_ReadMemEx(0x40000400, 0x4 Bytes, Flags = 0x02000004)
T18B8 1804:293.699   CPU_ReadMem(4 bytes @ 0x40000400)
T18B8 1804:294.048   Data:  01 00 00 00
T18B8 1804:294.063 - 0.373ms returns 4 (0x4)
T18B8 1804:294.076 JLINK_ReadMemEx(0x40000428, 0x4 Bytes, Flags = 0x02000004)
T18B8 1804:294.086   CPU_ReadMem(4 bytes @ 0x40000428)
T18B8 1804:294.471   Data:  0F 00 00 00
T18B8 1804:294.486 - 0.410ms returns 4 (0x4)
T18B8 1804:294.499 JLINK_ReadMemEx(0x40000438, 0x4 Bytes, Flags = 0x02000004)
T18B8 1804:294.510   CPU_ReadMem(4 bytes @ 0x40000438)
T18B8 1804:294.863   Data:  00 00 00 00
T18B8 1804:294.878 - 0.378ms returns 4 (0x4)
T18B8 1804:294.891 JLINK_ReadMemEx(0x40000510, 0x4 Bytes, Flags = 0x02000004)
T18B8 1804:294.902   CPU_ReadMem(4 bytes @ 0x40000510)
T18B8 1804:295.256   Data:  00 00 00 00
T18B8 1804:295.271 - 0.380ms returns 4 (0x4)
T18B8 1804:295.284 JLINK_ReadMemEx(0x4000051C, 0x4 Bytes, Flags = 0x02000004)
T18B8 1804:295.295   CPU_ReadMem(4 bytes @ 0x4000051C)
T18B8 1804:295.653   Data:  00 00 00 00
T18B8 1804:295.668 - 0.383ms returns 4 (0x4)
T18B8 1804:295.682 JLINK_ReadMemEx(0x40000520, 0x4 Bytes, Flags = 0x02000004)
T18B8 1804:295.693   CPU_ReadMem(4 bytes @ 0x40000520)
T18B8 1804:296.040   Data:  00 00 00 00
T18B8 1804:296.055 - 0.372ms returns 4 (0x4)
T18B8 1804:296.068 JLINK_ReadMemEx(0x40000578, 0x4 Bytes, Flags = 0x02000004)
T18B8 1804:296.078   CPU_ReadMem(4 bytes @ 0x40000578)
T18B8 1804:296.475   Data:  00 00 00 00
T18B8 1804:296.489 - 0.421ms returns 4 (0x4)
T18B8 1804:296.503 JLINK_ReadMemEx(0x40000580, 0x4 Bytes, Flags = 0x02000004)
T18B8 1804:296.513   CPU_ReadMem(4 bytes @ 0x40000580)
T18B8 1804:296.859   Data:  00 00 00 00
T18B8 1804:296.874 - 0.371ms returns 4 (0x4)
T18B8 1804:296.887 JLINK_ReadMemEx(0x40000640, 0x4 Bytes, Flags = 0x02000004)
T18B8 1804:296.900   CPU_ReadMem(4 bytes @ 0x40000640)
T18B8 1804:297.250   Data:  00 00 00 00
T18B8 1804:297.265 - 0.378ms returns 4 (0x4)
T18B8 1804:297.279 JLINK_ReadMemEx(0x40000900, 0x4 Bytes, Flags = 0x02000004)
T18B8 1804:297.289   CPU_ReadMem(4 bytes @ 0x40000900)
T18B8 1804:297.596   Data:  FF FF 00 00
T18B8 1804:297.611 - 0.332ms returns 4 (0x4)
T18B8 1804:297.624 JLINK_ReadMemEx(0x40000910, 0x4 Bytes, Flags = 0x02000004)
T18B8 1804:297.635   CPU_ReadMem(4 bytes @ 0x40000910)
T18B8 1804:297.945   Data:  FF FF 00 00
T18B8 1804:297.960 - 0.335ms returns 4 (0x4)
T18B8 1804:297.973 JLINK_ReadMemEx(0x40000920, 0x4 Bytes, Flags = 0x02000004)
T18B8 1804:297.983   CPU_ReadMem(4 bytes @ 0x40000920)
T18B8 1804:298.298   Data:  FF FF 00 00
T18B8 1804:298.313 - 0.339ms returns 4 (0x4)
T18B8 1804:298.326 JLINK_ReadMemEx(0x40000930, 0x4 Bytes, Flags = 0x02000004)
T18B8 1804:298.336   CPU_ReadMem(4 bytes @ 0x40000930)
T18B8 1804:298.641   Data:  FF FF 00 00
T18B8 1804:298.660 - 0.334ms returns 4 (0x4)
T18B8 1804:298.674 JLINK_ReadMemEx(0x40000940, 0x4 Bytes, Flags = 0x02000004)
T18B8 1804:298.685   CPU_ReadMem(4 bytes @ 0x40000940)
T18B8 1804:299.024   Data:  FF FF 00 00
T18B8 1804:299.039 - 0.364ms returns 4 (0x4)
T18B8 1804:299.052 JLINK_ReadMemEx(0x40000950, 0x4 Bytes, Flags = 0x02000004)
T18B8 1804:299.062   CPU_ReadMem(4 bytes @ 0x40000950)
T18B8 1804:299.391   Data:  FF FF 00 00
T18B8 1804:299.406 - 0.353ms returns 4 (0x4)
T18B8 1804:299.419 JLINK_ReadMemEx(0x40000960, 0x4 Bytes, Flags = 0x02000004)
T18B8 1804:299.429   CPU_ReadMem(4 bytes @ 0x40000960)
T18B8 1804:299.734   Data:  FF FF 00 00
T18B8 1804:299.749 - 0.330ms returns 4 (0x4)
T18B8 1804:299.762 JLINK_ReadMemEx(0x40000970, 0x4 Bytes, Flags = 0x02000004)
T18B8 1804:299.773   CPU_ReadMem(4 bytes @ 0x40000970)
T18B8 1804:300.077   Data:  FF FF 00 00
T18B8 1804:300.093 - 0.330ms returns 4 (0x4)
T18B8 1804:300.106 JLINK_ReadMemEx(0x40000980, 0x4 Bytes, Flags = 0x02000004)
T18B8 1804:300.116   CPU_ReadMem(4 bytes @ 0x40000980)
T18B8 1804:300.451   Data:  FF FF 00 00
T18B8 1804:300.466 - 0.359ms returns 4 (0x4)
T18B8 1804:311.105 JLINK_ReadMemEx(0x000013B0, 0x3C Bytes, Flags = 0x02000000)
T18B8 1804:311.136   CPU_ReadMem(128 bytes @ 0x00001380)
T18B8 1804:312.512    -- Updating C cache (128 bytes @ 0x00001380)
T18B8 1804:312.531    -- Read from C cache (60 bytes @ 0x000013B0)
T18B8 1804:312.544   Data:  96 4F 08 BF 1B 48 1C D0 19 E0 B0 F5 61 3F 08 BF ...
T18B8 1804:312.555 - 1.450ms returns 60 (0x3C)
T18B8 1804:312.573 JLINK_ReadMemEx(0x000013EC, 0x14 Bytes, Flags = 0x02000000)
T18B8 1804:312.582    -- Read from C cache (20 bytes @ 0x000013EC)
T18B8 1804:312.593   Data:  01 D0 4F F0 EB 70 0D 4A 10 60 0D 4A 06 20 10 60 ...
T18B8 1804:312.604 - 0.031ms returns 20 (0x14)
T18B8 1804:312.614 JLINK_ReadMemEx(0x00001400, 0x28 Bytes, Flags = 0x02000000)
T18B8 1804:312.623   CPU_ReadMem(64 bytes @ 0x00001400)
T18B8 1804:313.485    -- Updating C cache (64 bytes @ 0x00001400)
T18B8 1804:313.518    -- Read from C cache (40 bytes @ 0x00001400)
T18B8 1804:313.530   Data:  10 60 0C 4A 10 60 0C 48 C0 F8 20 11 C0 F8 10 11 ...
T18B8 1804:313.541 - 0.927ms returns 40 (0x28)
T18B8 1804:313.558 JLINK_ReadMemEx(0x0000143C, 0x3C Bytes, Flags = 0x02000000)
T18B8 1804:313.568   CPU_ReadMem(64 bytes @ 0x00001440)
T18B8 1804:314.454    -- Updating C cache (64 bytes @ 0x00001440)
T18B8 1804:314.470    -- Read from C cache (60 bytes @ 0x0000143C)
T18B8 1804:314.482   Data:  09 49 08 70 09 48 01 60 01 21 00 1D 01 60 08 48 ...
T18B8 1804:314.493 - 0.935ms returns 60 (0x3C)
T18B8 1804:314.510 JLINK_ReadMemEx(0x00001478, 0x3C Bytes, Flags = 0x02000000)
T18B8 1804:314.520   CPU_ReadMem(64 bytes @ 0x00001480)
T18B8 1804:315.428    -- Updating C cache (64 bytes @ 0x00001480)
T18B8 1804:315.445    -- Read from C cache (60 bytes @ 0x00001478)
T18B8 1804:315.457   Data:  35 46 52 6E 00 06 01 40 4F F0 FF 31 07 4A 01 EB ...
T18B8 1804:315.468 - 0.958ms returns 60 (0x3C)
T0A3C 1808:805.881 JLINK_ReadMemEx(0x000014B0, 0x2 Bytes, Flags = 0x02000000)
T0A3C 1808:805.910    -- Read from C cache (2 bytes @ 0x000014B0)
T0A3C 1808:805.921   Data:  10 B5
T0A3C 1808:805.932 - 0.052ms returns 2 (0x2)
T0A3C 1808:805.943 JLINK_HasError()
T0A3C 1808:805.955 JLINK_HasError()
T0A3C 1808:805.966 JLINK_Go()
T0A3C 1808:806.479   CPU_ReadMem(4 bytes @ 0xE0001000)
T0A3C 1808:806.909   CPU_WriteMem(4 bytes @ 0xE0002008)
T0A3C 1808:807.886 - 1.919ms
T0A3C 1808:908.066 JLINK_HasError()
T0A3C 1808:908.147 JLINK_IsHalted()
T0A3C 1808:908.693 - 0.544ms returns FALSE
T0A3C 1809:009.631 JLINK_HasError()
T0A3C 1809:009.659 JLINK_IsHalted()
T0A3C 1809:010.107 - 0.447ms returns FALSE
T0A3C 1809:110.483 JLINK_HasError()
T0A3C 1809:110.560 JLINK_IsHalted()
T0A3C 1809:111.228 - 0.665ms returns FALSE
T0A3C 1809:212.144 JLINK_HasError()
T0A3C 1809:212.176 JLINK_IsHalted()
T0A3C 1809:212.747 - 0.568ms returns FALSE
T0A3C 1809:313.154 JLINK_HasError()
T0A3C 1809:313.184 JLINK_IsHalted()
T0A3C 1809:313.754 - 0.568ms returns FALSE
T0A3C 1809:414.088 JLINK_HasError()
T0A3C 1809:414.120 JLINK_HasError()
T0A3C 1809:414.130 JLINK_ReadMemU32(0xE0001004, 0x1 Items)
T0A3C 1809:414.149   CPU_ReadMem(4 bytes @ 0xE0001004)
T0A3C 1809:414.713   Data:  5B 66 50 02
T0A3C 1809:414.742   Debug reg: DWT_CYCCNT
T0A3C 1809:414.753 - 0.622ms returns 1 (0x1)
T18B8 1809:414.897 JLINK_ReadMemEx(0x4001C104, 0x18 Bytes, Flags = 0x02000004)
T18B8 1809:414.922   CPU_ReadMem(24 bytes @ 0x4001C104)
T18B8 1809:415.718   Data:  00 00 00 00 00 00 00 00 00 00 00 00 00 00 00 00 ...
T18B8 1809:415.746 - 0.849ms returns 24 (0x18)
T18B8 1809:415.765 JLINK_ReadMemEx(0x4001C11C, 0x4 Bytes, Flags = 0x02000004)
T18B8 1809:415.781   CPU_ReadMem(4 bytes @ 0x4001C11C)
T18B8 1809:416.356   Data:  00 00 00 00
T18B8 1809:416.390 - 0.625ms returns 4 (0x4)
T18B8 1809:416.411 JLINK_ReadMemEx(0x4001C200, 0x4 Bytes, Flags = 0x02000004)
T18B8 1809:416.429   CPU_ReadMem(4 bytes @ 0x4001C200)
T18B8 1809:417.124   Data:  00 00 00 00
T18B8 1809:417.153 - 0.742ms returns 4 (0x4)
T18B8 1809:417.172 JLINK_ReadMemEx(0x4001C300, 0x8 Bytes, Flags = 0x02000004)
T18B8 1809:417.187   CPU_ReadMem(8 bytes @ 0x4001C300)
T18B8 1809:417.815   Data:  00 00 00 00 00 00 00 00
T18B8 1809:417.847 - 0.674ms returns 8 (0x8)
T18B8 1809:417.866 JLINK_ReadMemEx(0x4001C308, 0x4 Bytes, Flags = 0x02000004)
T18B8 1809:417.881   CPU_ReadMem(4 bytes @ 0x4001C308)
T18B8 1809:418.340   Data:  00 00 00 00
T18B8 1809:418.363 - 0.497ms returns 4 (0x4)
T18B8 1809:418.378 JLINK_ReadMemEx(0x4001C500, 0x14 Bytes, Flags = 0x02000004)
T18B8 1809:418.389   CPU_ReadMem(20 bytes @ 0x4001C500)
T18B8 1809:419.060   Data:  00 00 00 00 00 00 00 00 FF 03 00 00 00 00 00 00 ...
T18B8 1809:419.076 - 0.698ms returns 20 (0x14)
T18B8 1809:419.090 JLINK_ReadMemEx(0x4001C514, 0x4 Bytes, Flags = 0x02000004)
T18B8 1809:419.101   CPU_ReadMem(4 bytes @ 0x4001C514)
T18B8 1809:419.549   Data:  00 00 00 00
T18B8 1809:419.565 - 0.475ms returns 4 (0x4)
T18B8 1809:419.579 JLINK_ReadMemEx(0x4001C520, 0xC Bytes, Flags = 0x02000004)
T18B8 1809:419.590   CPU_ReadMem(12 bytes @ 0x4001C520)
T18B8 1809:420.219   Data:  00 00 00 00 00 00 00 00 01 00 00 00
T18B8 1809:420.244 - 0.664ms returns 12 (0xC)
T18B8 1809:420.261 JLINK_ReadMemEx(0x4001C52C, 0x4 Bytes, Flags = 0x02000004)
T18B8 1809:420.276   CPU_ReadMem(4 bytes @ 0x4001C52C)
T18B8 1809:420.763   Data:  00 00 00 00
T18B8 1809:420.781 - 0.520ms returns 4 (0x4)
T18B8 1809:420.796 JLINK_ReadMemEx(0x4001C540, 0xC Bytes, Flags = 0x02000004)
T18B8 1809:420.808   CPU_ReadMem(12 bytes @ 0x4001C540)
T18B8 1809:421.478   Data:  00 00 00 00 00 00 00 00 01 00 00 00
T18B8 1809:421.497 - 0.701ms returns 12 (0xC)
T18B8 1809:421.511 JLINK_ReadMemEx(0x4001C54C, 0x4 Bytes, Flags = 0x02000004)
T18B8 1809:421.523   CPU_ReadMem(4 bytes @ 0x4001C54C)
T18B8 1809:422.080   Data:  00 00 00 00
T18B8 1809:422.098 - 0.586ms returns 4 (0x4)
T18B8 1809:422.112 JLINK_ReadMemEx(0x4001C560, 0xC Bytes, Flags = 0x02000004)
T18B8 1809:422.124   CPU_ReadMem(12 bytes @ 0x4001C560)
T18B8 1809:422.753   Data:  FF FF FF FF FF FF FF FF FF FF FF FF
T18B8 1809:422.770 - 0.658ms returns 12 (0xC)
T18B8 1809:422.784 JLINK_ReadMemEx(0x4001C56C, 0x4 Bytes, Flags = 0x02000004)
T18B8 1809:422.796   CPU_ReadMem(4 bytes @ 0x4001C56C)
T18B8 1809:423.423   Data:  FF FF FF FF
T18B8 1809:423.441 - 0.656ms returns 4 (0x4)
T18B8 1809:423.770 JLINK_ReadMemEx(0x40000108, 0x4 Bytes, Flags = 0x02000004)
T18B8 1809:423.788   CPU_ReadMem(4 bytes @ 0x40000108)
T18B8 1809:424.304   Data:  00 00 00 00
T18B8 1809:424.339 - 0.569ms returns 4 (0x4)
T18B8 1809:424.355 JLINK_ReadMemEx(0x40000114, 0x10 Bytes, Flags = 0x02000004)
T18B8 1809:424.368   CPU_ReadMem(16 bytes @ 0x40000114)
T18B8 1809:425.012   Data:  01 00 00 00 01 00 00 00 00 00 00 00 00 00 00 00
T18B8 1809:425.036 - 0.680ms returns 16 (0x10)
T18B8 1809:425.052 JLINK_ReadMemEx(0x40000124, 0x4 Bytes, Flags = 0x02000004)
T18B8 1809:425.066   CPU_ReadMem(4 bytes @ 0x40000124)
T18B8 1809:425.580   Data:  00 00 00 00
T18B8 1809:425.598 - 0.545ms returns 4 (0x4)
T18B8 1809:425.619 JLINK_ReadMemEx(0x40000304, 0x4 Bytes, Flags = 0x02000004)
T18B8 1809:425.631   CPU_ReadMem(4 bytes @ 0x40000304)
T18B8 1809:426.211   Data:  00 00 00 00
T18B8 1809:426.229 - 0.610ms returns 4 (0x4)
T18B8 1809:426.243 JLINK_ReadMemEx(0x40000308, 0x4 Bytes, Flags = 0x02000004)
T18B8 1809:426.255   CPU_ReadMem(4 bytes @ 0x40000308)
T18B8 1809:426.833   Data:  00 00 00 00
T18B8 1809:426.851 - 0.607ms returns 4 (0x4)
T18B8 1809:426.865 JLINK_ReadMemEx(0x40000400, 0x4 Bytes, Flags = 0x02000004)
T18B8 1809:426.876   CPU_ReadMem(4 bytes @ 0x40000400)
T18B8 1809:427.436   Data:  01 00 00 00
T18B8 1809:427.454 - 0.589ms returns 4 (0x4)
T18B8 1809:427.468 JLINK_ReadMemEx(0x40000428, 0x4 Bytes, Flags = 0x02000004)
T18B8 1809:427.481   CPU_ReadMem(4 bytes @ 0x40000428)
T18B8 1809:427.948   Data:  0F 00 00 00
T18B8 1809:427.966 - 0.497ms returns 4 (0x4)
T18B8 1809:427.981 JLINK_ReadMemEx(0x40000438, 0x4 Bytes, Flags = 0x02000004)
T18B8 1809:427.993   CPU_ReadMem(4 bytes @ 0x40000438)
T18B8 1809:428.492   Data:  00 00 00 00
T18B8 1809:428.509 - 0.528ms returns 4 (0x4)
T18B8 1809:428.524 JLINK_ReadMemEx(0x40000510, 0x4 Bytes, Flags = 0x02000004)
T18B8 1809:428.536   CPU_ReadMem(4 bytes @ 0x40000510)
T18B8 1809:429.067   Data:  00 00 00 00
T18B8 1809:429.085 - 0.560ms returns 4 (0x4)
T18B8 1809:429.099 JLINK_ReadMemEx(0x4000051C, 0x4 Bytes, Flags = 0x02000004)
T18B8 1809:429.111   CPU_ReadMem(4 bytes @ 0x4000051C)
T18B8 1809:429.640   Data:  00 00 00 00
T18B8 1809:429.658 - 0.558ms returns 4 (0x4)
T18B8 1809:429.681 JLINK_ReadMemEx(0x40000520, 0x4 Bytes, Flags = 0x02000004)
T18B8 1809:429.701   CPU_ReadMem(4 bytes @ 0x40000520)
T18B8 1809:430.233   Data:  00 00 00 00
T18B8 1809:430.251 - 0.569ms returns 4 (0x4)
T18B8 1809:430.265 JLINK_ReadMemEx(0x40000578, 0x4 Bytes, Flags = 0x02000004)
T18B8 1809:430.277   CPU_ReadMem(4 bytes @ 0x40000578)
T18B8 1809:430.768   Data:  00 00 00 00
T18B8 1809:430.785 - 0.520ms returns 4 (0x4)
T18B8 1809:430.799 JLINK_ReadMemEx(0x40000580, 0x4 Bytes, Flags = 0x02000004)
T18B8 1809:430.811   CPU_ReadMem(4 bytes @ 0x40000580)
T18B8 1809:431.258   Data:  00 00 00 00
T18B8 1809:431.286 - 0.486ms returns 4 (0x4)
T18B8 1809:431.305 JLINK_ReadMemEx(0x40000640, 0x4 Bytes, Flags = 0x02000004)
T18B8 1809:431.339   CPU_ReadMem(4 bytes @ 0x40000640)
T18B8 1809:431.915   Data:  00 00 00 00
T18B8 1809:431.936 - 0.630ms returns 4 (0x4)
T18B8 1809:431.951 JLINK_ReadMemEx(0x40000900, 0x4 Bytes, Flags = 0x02000004)
T18B8 1809:431.963   CPU_ReadMem(4 bytes @ 0x40000900)
T18B8 1809:432.452   Data:  FF FF 00 00
T18B8 1809:432.474 - 0.522ms returns 4 (0x4)
T18B8 1809:432.494 JLINK_ReadMemEx(0x40000910, 0x4 Bytes, Flags = 0x02000004)
T18B8 1809:432.530   CPU_ReadMem(4 bytes @ 0x40000910)
T18B8 1809:433.095   Data:  FF FF 00 00
T18B8 1809:433.116 - 0.622ms returns 4 (0x4)
T18B8 1809:433.135 JLINK_ReadMemEx(0x40000920, 0x4 Bytes, Flags = 0x02000004)
T18B8 1809:433.149   CPU_ReadMem(4 bytes @ 0x40000920)
T18B8 1809:433.657   Data:  FF FF 00 00
T18B8 1809:433.675 - 0.540ms returns 4 (0x4)
T18B8 1809:433.692 JLINK_ReadMemEx(0x40000930, 0x4 Bytes, Flags = 0x02000004)
T18B8 1809:433.705   CPU_ReadMem(4 bytes @ 0x40000930)
T18B8 1809:434.204   Data:  FF FF 00 00
T18B8 1809:434.222 - 0.529ms returns 4 (0x4)
T18B8 1809:434.239 JLINK_ReadMemEx(0x40000940, 0x4 Bytes, Flags = 0x02000004)
T18B8 1809:434.251   CPU_ReadMem(4 bytes @ 0x40000940)
T18B8 1809:434.761   Data:  FF FF 00 00
T18B8 1809:434.779 - 0.539ms returns 4 (0x4)
T18B8 1809:434.795 JLINK_ReadMemEx(0x40000950, 0x4 Bytes, Flags = 0x02000004)
T18B8 1809:434.808   CPU_ReadMem(4 bytes @ 0x40000950)
T18B8 1809:435.340   Data:  FF FF 00 00
T18B8 1809:435.357 - 0.561ms returns 4 (0x4)
T18B8 1809:435.373 JLINK_ReadMemEx(0x40000960, 0x4 Bytes, Flags = 0x02000004)
T18B8 1809:435.384   CPU_ReadMem(4 bytes @ 0x40000960)
T18B8 1809:435.914   Data:  FF FF 00 00
T18B8 1809:435.930 - 0.557ms returns 4 (0x4)
T18B8 1809:435.946 JLINK_ReadMemEx(0x40000970, 0x4 Bytes, Flags = 0x02000004)
T18B8 1809:435.962   CPU_ReadMem(4 bytes @ 0x40000970)
T18B8 1809:436.358   Data:  FF FF 00 00
T18B8 1809:436.375 - 0.428ms returns 4 (0x4)
T18B8 1809:436.391 JLINK_ReadMemEx(0x40000980, 0x4 Bytes, Flags = 0x02000004)
T18B8 1809:436.403   CPU_ReadMem(4 bytes @ 0x40000980)
T18B8 1809:436.767   Data:  FF FF 00 00
T18B8 1809:436.824 - 0.432ms returns 4 (0x4)
T0A3C 1809:450.578 JLINK_IsHalted()
T0A3C 1809:451.056 - 0.477ms returns FALSE
T0A3C 1809:552.069 JLINK_HasError()
T0A3C 1809:552.097 JLINK_IsHalted()
T0A3C 1809:552.527 - 0.429ms returns FALSE
T0A3C 1809:652.687 JLINK_HasError()
T0A3C 1809:652.714 JLINK_IsHalted()
T0A3C 1809:653.339 - 0.624ms returns FALSE
T0A3C 1809:754.079 JLINK_HasError()
T0A3C 1809:754.117 JLINK_IsHalted()
T0A3C 1809:754.663 - 0.544ms returns FALSE
T0A3C 1809:855.017 JLINK_HasError()
T0A3C 1809:855.047 JLINK_IsHalted()
T0A3C 1809:855.606 - 0.558ms returns FALSE
T0A3C 1809:955.960 JLINK_HasError()
T0A3C 1809:955.995 JLINK_HasError()
T0A3C 1809:956.009 JLINK_ReadMemU32(0xE0001004, 0x1 Items)
T0A3C 1809:956.030   Data:  5B 66 50 02
T0A3C 1809:956.045   Debug reg: DWT_CYCCNT
T0A3C 1809:956.060 - 0.050ms returns 1 (0x1)
T18B8 1809:956.216 JLINK_ReadMemEx(0x4001C104, 0x18 Bytes, Flags = 0x02000004)
T18B8 1809:956.241   CPU_ReadMem(24 bytes @ 0x4001C104)
T18B8 1809:957.115   Data:  00 00 00 00 00 00 00 00 00 00 00 00 00 00 00 00 ...
T18B8 1809:957.148 - 0.932ms returns 24 (0x18)
T18B8 1809:957.171 JLINK_ReadMemEx(0x4001C11C, 0x4 Bytes, Flags = 0x02000004)
T18B8 1809:957.190   CPU_ReadMem(4 bytes @ 0x4001C11C)
T18B8 1809:957.726   Data:  00 00 00 00
T18B8 1809:957.753 - 0.581ms returns 4 (0x4)
T18B8 1809:957.772 JLINK_ReadMemEx(0x4001C200, 0x4 Bytes, Flags = 0x02000004)
